!Agilent Technologies,E5071C,MY46419080,A.11.31
!Date: Fri Sep 13 16:01:36 2019
!Data & Calibration Information:
!Freq	S11:SOLT3(ON)	S12:SOLT3(ON)	S13:SOLT3(ON)
!	S21:SOLT3(ON)	S22:SOLT3(ON)	S23:SOLT3(ON)
!	S31:SOLT3(ON)	S32:SOLT3(ON)	S33:SOLT3(ON)
!PortZ  Port1:50+j0    Port2:50+j0    Port3:50+j0
!Above PortZ is port z conversion or system Z0 setting when saving the data.
!When reading, reference impedance value at option line is always used.
# Hz S RI R 50
10000000	-9.008121e-001	-4.496854e-002	-3.980501e-005	7.380829e-005	-1.347758e-005	-1.120250e-004
	6.095148e-005	1.121557e-004	-9.061929e-001	-1.186273e-002	1.930202e-005	6.287595e-005
	-1.383722e-004	-1.509690e-004	-3.867209e-005	1.514363e-004	-7.803380e-001	5.150929e-001
10050000	-9.029832e-001	-3.233240e-002	-5.081143e-005	1.057121e-004	-2.344538e-005	-1.598634e-004
	7.213834e-005	1.333598e-004	-9.078211e-001	5.549447e-004	3.761626e-005	4.865256e-005
	-7.026976e-005	-1.107023e-004	3.138686e-006	8.764381e-005	-7.789839e-001	5.177173e-001
10100000	-9.052680e-001	-1.998383e-002	-1.839688e-005	9.298379e-005	-1.246634e-004	-1.353204e-004
	4.115306e-005	1.366915e-004	-9.094062e-001	1.236332e-002	3.812289e-005	1.016564e-004
	-1.154813e-004	-1.827177e-004	-4.809430e-005	1.366144e-004	-7.774588e-001	5.198361e-001
10150000	-9.069736e-001	-7.767451e-003	3.869558e-006	1.504218e-004	1.559729e-005	-1.246093e-004
	5.631310e-005	7.676609e-005	-9.104080e-001	2.394101e-002	3.814311e-005	4.803807e-005
	-1.558624e-004	-2.189098e-004	-9.192068e-005	1.038401e-004	-7.760624e-001	5.215120e-001
10200000	-9.085724e-001	4.022014e-003	-5.369114e-007	1.399532e-004	-2.881547e-005	-9.446489e-005
	5.653084e-005	1.069543e-004	-9.112160e-001	3.526924e-002	-1.433593e-007	9.867460e-005
	-5.655989e-005	-9.577218e-005	-1.071478e-004	1.056582e-004	-7.745027e-001	5.242568e-001
10250000	-9.100470e-001	1.517827e-002	-4.070332e-005	9.505191e-005	-7.297527e-005	-1.423632e-004
	1.414468e-004	9.639780e-005	-9.120808e-001	4.668564e-002	2.326321e-005	8.495499e-005
	-1.527885e-004	-1.030598e-004	-1.075861e-004	1.092659e-004	-7.727894e-001	5.260446e-001
10300000	-9.109237e-001	2.657878e-002	-5.714855e-006	1.123666e-004	-4.308462e-005	-1.172292e-004
	6.621432e-005	4.381528e-005	-9.129964e-001	5.766535e-002	2.263448e-005	1.902017e-006
	-1.454708e-004	-1.128792e-004	-5.747626e-005	9.785691e-005	-7.712786e-001	5.286975e-001
10350000	-9.117187e-001	3.753157e-002	-3.549889e-005	1.340832e-004	-7.559510e-005	-1.547430e-004
	1.163256e-004	4.172018e-005	-9.131483e-001	6.823325e-002	-5.175479e-006	3.839124e-005
	-1.282532e-004	-1.535429e-004	-6.920663e-005	1.452608e-004	-7.694581e-001	5.314919e-001
10400000	-9.126877e-001	4.807702e-002	-4.577214e-005	1.424903e-004	-4.358078e-005	-1.568505e-004
	7.979885e-006	1.053922e-004	-9.135924e-001	7.855004e-002	-8.791167e-006	3.288041e-005
	-7.975137e-005	-9.345247e-005	2.336228e-006	1.358965e-004	-7.678380e-001	5.334965e-001
10450000	-9.129784e-001	5.901035e-002	-2.057548e-005	1.500348e-004	-3.114119e-005	-1.693078e-004
	6.652480e-005	5.029317e-005	-9.138790e-001	8.902982e-002	6.749745e-005	4.466049e-005
	-1.044219e-004	-1.343685e-004	-4.161399e-005	5.928670e-005	-7.662568e-001	5.357822e-001
10500000	-9.134155e-001	6.900333e-002	1.343239e-005	1.346423e-004	-3.472047e-005	-2.326105e-004
	1.053347e-004	9.081242e-005	-9.136158e-001	9.879472e-002	2.454762e-005	1.432363e-004
	-1.499881e-004	-9.674391e-005	-8.171164e-005	1.250198e-004	-7.648241e-001	5.380565e-001
10550000	-9.138471e-001	7.913865e-002	9.265585e-006	1.588184e-004	-7.063445e-005	-1.572908e-004
	1.084897e-004	9.088630e-005	-9.137650e-001	1.088889e-001	3.513803e-005	5.566652e-005
	-1.320027e-004	-6.127089e-005	-2.689050e-005	8.778861e-005	-7.628359e-001	5.401880e-001
10600000	-9.141251e-001	8.915712e-002	7.424420e-006	1.042701e-004	-8.301892e-005	-1.613970e-004
	1.568090e-004	8.952125e-005	-9.134467e-001	1.182605e-001	7.256364e-005	4.546905e-005
	-1.071218e-004	-1.326919e-004	-8.957080e-006	8.645409e-005	-7.618242e-001	5.427004e-001
10650000	-9.139247e-001	9.893049e-002	-9.130894e-005	1.042679e-004	-9.253944e-005	-1.652067e-004
	8.461974e-005	1.075389e-004	-9.128779e-001	1.278438e-001	3.397211e-005	9.416645e-005
	-7.988122e-005	-1.113616e-004	-3.371561e-005	8.003928e-005	-7.594550e-001	5.450102e-001
10700000	-9.135987e-001	1.087976e-001	1.083999e-005	1.340536e-004	-4.356644e-005	-1.154250e-004
	7.878371e-005	8.316005e-005	-9.126156e-001	1.371281e-001	7.152075e-005	1.019443e-004
	-8.570785e-005	-6.904166e-005	-7.354748e-005	9.921656e-005	-7.580459e-001	5.468637e-001
10750000	-9.138136e-001	1.181114e-001	2.213964e-005	8.296351e-005	-8.786117e-005	-1.417774e-004
	1.339307e-004	1.463098e-005	-9.122012e-001	1.466553e-001	1.216074e-005	5.029575e-005
	-9.898985e-005	-1.234132e-004	-3.223241e-005	5.069108e-005	-7.566589e-001	5.493618e-001
10800000	-9.128663e-001	1.269345e-001	7.509563e-005	7.918118e-005	-8.220186e-005	-1.271733e-004
	9.761991e-005	5.091605e-005	-9.112814e-001	1.554806e-001	6.439610e-005	1.363054e-004
	-1.155822e-004	-1.083678e-004	-9.762654e-005	1.596138e-004	-7.546051e-001	5.518292e-001
10850000	-9.128781e-001	1.360822e-001	1.559715e-005	1.163620e-004	-2.339264e-005	-9.641876e-005
	1.011969e-004	7.936549e-005	-9.108817e-001	1.644043e-001	-5.684200e-005	7.146637e-005
	-9.969179e-005	-7.985692e-005	-6.663363e-005	1.096625e-004	-7.531436e-001	5.541563e-001
10900000	-9.122096e-001	1.445197e-001	2.488842e-006	1.244861e-004	-8.442758e-005	-1.485606e-004
	8.698869e-005	6.460039e-005	-9.100175e-001	1.726949e-001	4.837249e-005	1.041413e-004
	-2.044615e-004	-1.369789e-005	-7.412338e-005	6.151280e-005	-7.511282e-001	5.565739e-001
10950000	-9.113914e-001	1.535177e-001	2.669866e-006	9.819357e-005	-7.516722e-005	-1.725573e-004
	3.798656e-005	8.804923e-005	-9.085737e-001	1.814788e-001	5.378316e-006	1.866159e-005
	-1.445152e-004	-1.336434e-004	2.496872e-006	2.992572e-005	-7.496719e-001	5.578999e-001
11000000	-9.111100e-001	1.623653e-001	5.023682e-006	1.324052e-004	-6.850750e-005	-1.786868e-004
	1.386662e-004	1.131867e-004	-9.075920e-001	1.895296e-001	1.167799e-005	6.572139e-005
	-2.056393e-004	-8.288253e-005	-4.640111e-006	1.082880e-004	-7.476758e-001	5.605919e-001
11050000	-9.102551e-001	1.705808e-001	-6.229129e-006	1.201065e-004	-1.764823e-005	-8.143960e-005
	1.143855e-004	7.330284e-005	-9.068040e-001	1.980545e-001	5.637985e-005	1.495749e-004
	-1.075657e-004	-6.444920e-005	-3.977202e-005	1.072370e-004	-7.463459e-001	5.627970e-001
11100000	-9.089356e-001	1.785979e-001	-1.893484e-006	1.289456e-004	-8.143163e-005	-1.336656e-004
	6.580619e-005	5.684314e-005	-9.052594e-001	2.059916e-001	-3.116309e-005	1.211033e-004
	-1.596296e-004	-1.064542e-005	1.949579e-005	1.091961e-004	-7.446001e-001	5.651933e-001
11150000	-9.082166e-001	1.869422e-001	8.194244e-006	7.669855e-005	-5.810590e-005	-6.061159e-005
	5.376285e-006	6.347424e-005	-9.041232e-001	2.141202e-001	1.308639e-005	-1.355329e-005
	-1.525064e-004	-6.257545e-005	-5.503209e-005	1.394715e-004	-7.429647e-001	5.672511e-001
11200000	-9.068463e-001	1.946224e-001	3.175803e-005	1.542949e-004	-5.975660e-005	-1.060220e-004
	5.149149e-005	3.453493e-005	-9.031621e-001	2.218646e-001	8.874132e-006	3.853831e-005
	-7.168745e-005	-5.206946e-005	-5.302944e-005	1.208011e-004	-7.409241e-001	5.694013e-001
11250000	-9.062393e-001	2.023579e-001	2.277626e-005	1.308416e-004	-4.790704e-005	-7.386944e-005
	6.660509e-005	9.865788e-005	-9.014413e-001	2.297441e-001	2.335196e-005	6.985206e-005
	-1.304362e-004	-7.652356e-005	2.808341e-005	1.554589e-004	-7.389198e-001	5.719210e-001
11300000	-9.044816e-001	2.102961e-001	2.541970e-005	5.734317e-005	-7.704598e-005	-1.288207e-004
	1.312765e-004	4.897306e-005	-9.002867e-001	2.369074e-001	6.549686e-005	4.804802e-005
	-1.409628e-004	-9.415979e-005	-6.530562e-006	1.731102e-004	-7.376909e-001	5.739010e-001
11350000	-9.037131e-001	2.176888e-001	8.478173e-006	1.242484e-004	-3.652285e-005	-1.401867e-004
	6.940653e-005	8.718254e-005	-8.987625e-001	2.445100e-001	9.711079e-005	3.974723e-005
	-2.444522e-004	-4.759385e-005	-2.189095e-005	2.296881e-004	-7.357134e-001	5.761891e-001
11400000	-9.023858e-001	2.252606e-001	8.120043e-006	1.214621e-004	-2.949671e-005	-7.993788e-005
	7.295975e-005	5.251597e-005	-8.970932e-001	2.516587e-001	3.028816e-005	7.755668e-005
	-1.905037e-004	-6.267775e-005	-1.149434e-004	2.043397e-004	-7.339706e-001	5.782596e-001
11450000	-9.009080e-001	2.327097e-001	3.863808e-005	9.252532e-005	-5.620001e-005	-1.244321e-004
	7.404929e-005	3.507604e-006	-8.959280e-001	2.590777e-001	2.314532e-005	1.634570e-004
	-1.421188e-004	-2.174513e-005	-4.026173e-005	8.658246e-005	-7.322200e-001	5.804083e-001
11500000	-8.994977e-001	2.396972e-001	1.636989e-005	8.226131e-005	-6.923469e-005	-7.434060e-005
	4.153584e-005	8.899810e-005	-8.937968e-001	2.659627e-001	1.018276e-004	5.305865e-005
	-1.291794e-004	-3.227322e-005	-4.741963e-005	8.725675e-005	-7.303250e-001	5.829244e-001
11550000	-8.983361e-001	2.468679e-001	-1.653800e-005	3.341198e-005	-3.963864e-005	-1.181996e-004
	1.180790e-004	5.761265e-005	-8.922607e-001	2.727830e-001	8.423756e-005	6.569455e-005
	-7.552290e-005	-5.845381e-005	4.985123e-006	1.242928e-004	-7.283863e-001	5.846697e-001
11600000	-8.971164e-001	2.541838e-001	2.807309e-005	1.102388e-004	-1.095353e-004	-1.665097e-004
	1.521966e-004	2.652454e-005	-8.905791e-001	2.801452e-001	5.408218e-005	1.241458e-004
	-7.387273e-005	5.740348e-006	-4.667348e-005	1.730433e-004	-7.267330e-001	5.865434e-001
11650000	-8.953464e-001	2.606517e-001	4.483957e-005	1.130693e-004	-2.295291e-005	-1.170919e-004
	5.972535e-005	-1.180243e-005	-8.889541e-001	2.865078e-001	1.404739e-005	6.690044e-005
	-8.512084e-005	-3.824408e-005	-9.529288e-005	1.237493e-004	-7.246529e-001	5.890973e-001
11700000	-8.935317e-001	2.674054e-001	2.741491e-005	1.487043e-004	-1.016515e-004	-7.815409e-005
	8.795447e-005	1.668641e-005	-8.872205e-001	2.934353e-001	2.898322e-005	1.223331e-004
	-1.268387e-004	-7.775042e-005	-6.158693e-006	9.942860e-005	-7.229638e-001	5.912466e-001
11750000	-8.919369e-001	2.742359e-001	2.057972e-005	1.253149e-004	-1.054106e-004	-1.138048e-004
	8.639716e-005	3.134522e-005	-8.852476e-001	3.001798e-001	3.849077e-005	1.261398e-004
	-1.454043e-004	-7.906202e-006	-8.864050e-005	9.857118e-005	-7.211454e-001	5.935236e-001
11800000	-8.903270e-001	2.805321e-001	-1.981699e-005	1.432666e-004	-6.804310e-005	-1.502482e-004
	7.484777e-005	5.035962e-005	-8.835026e-001	3.060620e-001	5.369383e-005	4.335870e-005
	9.161134e-006	-6.161515e-005	-5.455786e-005	1.273164e-004	-7.192627e-001	5.956930e-001
11850000	-8.887917e-001	2.873489e-001	-3.183394e-005	1.133244e-004	-7.390802e-005	-1.935787e-005
	1.141876e-004	1.522169e-005	-8.818733e-001	3.128222e-001	4.282519e-005	1.156805e-004
	-1.717266e-004	-7.850967e-005	-8.704192e-006	1.945627e-004	-7.180318e-001	5.978998e-001
11900000	-8.869685e-001	2.934366e-001	4.671119e-006	1.551934e-004	-4.884748e-005	-9.471353e-005
	1.344526e-004	2.793533e-005	-8.798042e-001	3.187721e-001	9.714739e-005	1.031679e-004
	-8.296330e-005	-2.743726e-005	-3.037815e-005	1.327014e-004	-7.155712e-001	6.000547e-001
11950000	-8.853573e-001	2.996765e-001	1.061943e-006	1.657944e-004	-3.652953e-005	-1.065808e-004
	6.658522e-005	8.015163e-005	-8.776948e-001	3.252494e-001	5.939511e-005	3.353740e-005
	-1.084457e-004	-5.309209e-005	-3.262534e-005	1.479755e-004	-7.140389e-001	6.022631e-001
12000000	-8.836368e-001	3.062800e-001	-1.354432e-006	9.218305e-005	-1.117467e-005	-1.395360e-004
	7.286132e-005	1.115742e-004	-8.758031e-001	3.306911e-001	6.569565e-005	6.016347e-005
	-1.153366e-004	-1.332067e-004	-1.303364e-005	1.505963e-004	-7.122354e-001	6.038707e-001
12050000	-8.816454e-001	3.121357e-001	-1.780833e-005	1.069504e-004	-4.493717e-005	-1.666821e-004
	1.667356e-004	6.978487e-005	-8.737017e-001	3.376488e-001	7.601860e-005	1.134763e-004
	-1.791324e-004	-1.106121e-004	-4.009512e-005	2.278744e-004	-7.099863e-001	6.060849e-001
12100000	-8.795954e-001	3.180420e-001	2.245114e-005	1.227575e-004	-5.469900e-005	-7.522862e-005
	1.245700e-004	1.290396e-004	-8.717881e-001	3.432255e-001	5.015554e-005	6.479533e-005
	-1.934500e-004	-3.842006e-005	1.451340e-005	1.058523e-004	-7.079776e-001	6.086427e-001
12150000	-8.780406e-001	3.243700e-001	5.552950e-005	1.185810e-004	-1.093257e-004	-1.365499e-004
	1.197405e-004	4.128627e-005	-8.697220e-001	3.494412e-001	6.367490e-005	6.007729e-005
	-9.096941e-005	-1.067904e-004	-5.240563e-005	1.098505e-004	-7.063758e-001	6.101322e-001
12200000	-8.763101e-001	3.302531e-001	1.483097e-006	1.184906e-004	-2.306693e-005	-1.829385e-004
	1.363240e-004	5.573113e-005	-8.678303e-001	3.549436e-001	2.437193e-005	6.873207e-005
	-1.683827e-004	6.754965e-005	-1.442824e-004	2.164423e-004	-7.044940e-001	6.124572e-001
12250000	-8.740162e-001	3.361794e-001	-3.232679e-005	1.163949e-004	-1.316636e-005	-1.067041e-004
	1.040692e-004	3.065551e-005	-8.656670e-001	3.604888e-001	9.597457e-005	5.797580e-005
	-1.323856e-004	2.999167e-005	-2.698600e-005	1.821711e-004	-7.028546e-001	6.150287e-001
12300000	-8.723268e-001	3.414275e-001	-3.090320e-005	1.582282e-004	-7.365444e-005	-8.509162e-005
	1.213169e-004	1.480843e-005	-8.635758e-001	3.663185e-001	6.629252e-005	5.390369e-005
	-1.625556e-004	-7.919071e-005	7.718375e-005	1.612867e-004	-7.005042e-001	6.170985e-001
12350000	-8.704531e-001	3.468797e-001	3.318511e-005	8.797906e-005	-6.253040e-005	-1.413037e-004
	1.159750e-004	2.931403e-005	-8.614217e-001	3.721537e-001	1.118856e-004	8.099094e-005
	-3.309981e-005	9.030765e-006	2.410368e-005	1.636405e-004	-6.986434e-001	6.191377e-001
12400000	-8.683465e-001	3.524279e-001	3.888383e-005	9.920615e-005	-9.092164e-005	-1.244060e-004
	1.197413e-004	4.931819e-005	-8.592750e-001	3.774043e-001	1.186643e-004	9.168278e-005
	-1.645507e-004	-5.309197e-005	-1.079283e-004	1.790368e-004	-6.971865e-001	6.215081e-001
12450000	-8.662328e-001	3.577953e-001	3.283588e-005	1.294435e-004	-4.968407e-005	-7.701341e-005
	1.194207e-004	3.869634e-005	-8.570483e-001	3.828662e-001	4.848231e-005	5.292642e-005
	-1.117327e-004	2.854379e-005	-7.350829e-006	1.404133e-004	-6.949948e-001	6.235707e-001
12500000	-8.641604e-001	3.634786e-001	-1.046266e-005	1.136490e-004	-9.708944e-005	-1.377159e-004
	1.764983e-004	2.046836e-005	-8.546499e-001	3.887639e-001	4.615288e-005	3.727912e-005
	-7.046831e-005	-9.340018e-006	-3.788595e-005	1.824352e-004	-6.935296e-001	6.251689e-001
12550000	-8.621073e-001	3.688217e-001	-1.125402e-005	5.456471e-005	-6.673020e-005	-1.224098e-004
	1.809717e-004	9.248095e-005	-8.525312e-001	3.939770e-001	7.769594e-005	6.696395e-005
	-1.689213e-004	4.347789e-005	-3.661184e-005	1.839138e-004	-6.916882e-001	6.279619e-001
12600000	-8.604192e-001	3.742715e-001	-2.107883e-005	5.645727e-005	-6.471862e-005	-5.924088e-005
	1.216214e-004	-7.003399e-006	-8.501280e-001	3.987964e-001	6.718481e-006	8.440062e-005
	-1.538250e-004	4.409223e-006	-5.243586e-005	1.182174e-004	-6.893952e-001	6.299709e-001
12650000	-8.579146e-001	3.793013e-001	2.157933e-005	9.084507e-005	-5.754132e-005	-1.496035e-004
	1.025029e-004	-1.062980e-005	-8.479305e-001	4.044432e-001	6.496035e-005	7.723545e-005
	-9.947991e-005	-9.007981e-005	4.542185e-005	2.568920e-004	-6.879168e-001	6.318010e-001
12700000	-8.557560e-001	3.844928e-001	-2.332788e-005	1.230726e-004	-2.491995e-005	-7.538302e-005
	1.854917e-004	-2.946847e-005	-8.459733e-001	4.092919e-001	5.946518e-005	7.792807e-005
	-1.667794e-004	-4.771760e-005	-4.544097e-005	2.274087e-004	-6.853749e-001	6.341252e-001
12750000	-8.536670e-001	3.896924e-001	1.933075e-006	1.142450e-004	-1.008613e-004	-1.241509e-004
	1.208687e-004	7.275238e-005	-8.432744e-001	4.144183e-001	5.971809e-005	9.308542e-005
	-2.896316e-004	-3.971574e-005	-4.361036e-005	1.176074e-004	-6.838539e-001	6.361522e-001
12800000	-8.517341e-001	3.943311e-001	1.647123e-005	7.981497e-005	-8.168418e-005	-7.249225e-005
	9.546942e-005	3.176108e-005	-8.416168e-001	4.192443e-001	9.540123e-005	1.057608e-004
	-8.806836e-005	-8.046140e-006	-8.670670e-005	1.335052e-004	-6.819761e-001	6.387059e-001
12850000	-8.497407e-001	3.996761e-001	-2.010409e-005	6.914685e-005	-2.478509e-005	-1.139731e-004
	1.450891e-004	7.521533e-005	-8.391435e-001	4.244055e-001	9.868374e-005	6.799148e-005
	-1.745219e-004	-3.350554e-005	-1.044403e-004	2.157149e-004	-6.796463e-001	6.405953e-001
12900000	-8.473811e-001	4.047974e-001	2.353563e-005	9.942128e-005	-8.437061e-005	-1.066743e-004
	1.319233e-004	7.536023e-005	-8.370228e-001	4.289667e-001	7.370740e-005	6.289218e-005
	-1.543270e-004	6.306591e-006	1.578358e-005	2.197530e-004	-6.774743e-001	6.424154e-001
12950000	-8.448362e-001	4.094237e-001	2.086443e-005	8.815950e-005	-1.828977e-005	-1.609937e-004
	9.520325e-005	-7.101404e-006	-8.344424e-001	4.342733e-001	4.706446e-005	4.596926e-005
	-1.329937e-004	-2.291259e-006	-6.392188e-005	1.117008e-004	-6.754246e-001	6.446141e-001
13000000	-8.431453e-001	4.139890e-001	4.808276e-005	6.760467e-005	-1.355201e-004	-9.523634e-005
	1.435764e-004	-3.076412e-005	-8.320631e-001	4.389474e-001	1.957272e-005	1.051141e-004
	-2.009684e-004	-4.149053e-005	4.520015e-005	1.430434e-004	-6.737836e-001	6.465749e-001
13050000	-8.407318e-001	4.193802e-001	-6.626425e-006	1.194615e-004	-1.372060e-004	-5.659538e-005
	1.668933e-004	-4.440065e-007	-8.296389e-001	4.435868e-001	6.390573e-005	1.127679e-004
	-8.123623e-005	7.089264e-005	-1.020989e-004	1.396067e-004	-6.720311e-001	6.483471e-001
13100000	-8.385536e-001	4.234931e-001	5.828204e-005	1.311563e-004	-7.281607e-005	-1.241448e-004
	1.461497e-004	1.156520e-005	-8.273630e-001	4.481421e-001	1.291005e-005	9.268852e-005
	-1.347893e-004	-1.891287e-006	1.525774e-005	1.076936e-004	-6.701669e-001	6.501278e-001
13150000	-8.364053e-001	4.279381e-001	6.110695e-005	1.698327e-004	-1.039973e-004	-1.482982e-004
	1.191646e-004	3.987149e-005	-8.249457e-001	4.526062e-001	4.810130e-005	7.747858e-005
	-1.366127e-004	5.361463e-005	-4.399655e-005	1.806578e-004	-6.676189e-001	6.530190e-001
13200000	-8.342509e-001	4.325243e-001	1.806130e-005	8.661490e-005	-7.556706e-005	-1.278426e-004
	1.489622e-004	1.014981e-004	-8.227067e-001	4.575541e-001	7.252154e-005	1.235676e-004
	-1.704466e-004	-1.342284e-005	-1.751920e-005	1.385571e-004	-6.654238e-001	6.542127e-001
13250000	-8.319915e-001	4.375363e-001	-4.827088e-006	9.838384e-005	-1.140778e-004	-6.510081e-005
	1.455454e-004	-2.457578e-005	-8.198710e-001	4.618804e-001	4.878473e-005	9.005132e-005
	-1.023122e-004	-1.777626e-005	-2.007331e-005	9.382744e-005	-6.629527e-001	6.565032e-001
13300000	-8.297168e-001	4.418666e-001	4.308268e-005	1.376532e-004	-7.956850e-005	-1.448266e-004
	2.048188e-004	3.945499e-005	-8.180124e-001	4.661386e-001	8.781094e-005	9.093543e-005
	-1.837969e-004	-1.425768e-005	9.905430e-006	1.359935e-004	-6.617336e-001	6.586541e-001
13350000	-8.273560e-001	4.465452e-001	-1.288579e-006	1.170268e-004	-7.570282e-005	-9.259035e-005
	1.683753e-004	1.803199e-006	-8.155226e-001	4.709612e-001	9.060524e-005	1.051772e-004
	-7.522712e-005	5.555152e-005	-8.917257e-006	2.240201e-004	-6.593083e-001	6.611100e-001
13400000	-8.253235e-001	4.505489e-001	5.311595e-005	1.028476e-004	-4.840014e-005	-1.231102e-004
	1.824979e-004	-2.123946e-005	-8.134023e-001	4.753623e-001	4.199057e-005	1.218151e-004
	-1.813530e-004	-2.940161e-005	-1.138509e-006	1.377393e-004	-6.574960e-001	6.622712e-001
13450000	-8.231123e-001	4.553895e-001	1.116928e-005	1.124691e-004	-7.019657e-005	-1.485916e-004
	5.206756e-005	-5.626079e-005	-8.106526e-001	4.797397e-001	4.756965e-005	4.942192e-005
	-1.111394e-004	2.855247e-005	3.947562e-006	1.983380e-004	-6.554538e-001	6.646032e-001
13500000	-8.206022e-001	4.593152e-001	2.013347e-005	1.512381e-004	-1.677811e-005	-1.493752e-004
	1.448802e-004	2.081338e-005	-8.082716e-001	4.840772e-001	2.507095e-005	1.249633e-004
	-7.066740e-005	-8.867216e-005	-2.030772e-005	2.000350e-004	-6.528332e-001	6.665569e-001
